
T1868 000:091 SEGGER J-Link V6.14b Log File (0001ms, 0045ms total)
T1868 000:091 DLL Compiled: Mar  9 2017 08:46:04 (0001ms, 0045ms total)
T1868 000:091 Logging started @ 2018-02-02 14:32 (0001ms, 0045ms total)
T1868 000:092 JLINK_SetWarnOutHandler(...) (0000ms, 0045ms total)
T1868 000:092 JLINK_OpenEx(...)
Firmware: J-Link ARM V8 compiled Nov 28 2014 13:44:46
Hardware: V8.00
Feature(s): RDI,FlashDL,FlashBP,JFlash,GDBFULLWEBSRV Webserver running on local port 19080 (0019ms, 0064ms total)
T1868 000:092   returns O.K. (0019ms, 0064ms total)
T1868 000:111 JLINK_SetErrorOutHandler(...) (0000ms, 0064ms total)
T1868 000:111 JLINK_ExecCommand("ProjectFile = "F:\renming\mission\ÐÂ²ÊÆÁÁ¢Ïî\keil5\Template\mdk\JLinkSettings.ini"", ...). E:\my_program\JLink_V614b\JLinkDevices.xml evaluated successfully.Device "ARM7" selected.  returns 0x00 (0128ms, 0192ms total)
T1868 000:242 JLINK_ExecCommand("Device = LPC54608J512ET180:M4", ...). Device "LPC54608J512" selected.  returns 0x00 (0010ms, 0202ms total)
T1868 000:252 JLINK_ExecCommand("DisableConnectionTimeout", ...).   returns 0x01 (0000ms, 0202ms total)
T1868 000:252 JLINK_GetHardwareVersion()  returns 0x13880 (0000ms, 0202ms total)
T1868 000:252 JLINK_GetDLLVersion()  returns 61402 (0000ms, 0202ms total)
T1868 000:252 JLINK_GetFirmwareString(...) (0000ms, 0202ms total)
T1868 000:260 JLINK_GetDLLVersion()  returns 61402 (0000ms, 0202ms total)
T1868 000:260 JLINK_GetCompileDateTime() (0000ms, 0202ms total)
T1868 000:262 JLINK_GetFirmwareString(...) (0000ms, 0202ms total)
T1868 000:264 JLINK_GetHardwareVersion()  returns 0x13880 (0000ms, 0202ms total)
T1868 000:268 JLINK_TIF_Select(JLINKARM_TIF_SWD)  returns 0x00 (0005ms, 0207ms total)
T1868 000:273 JLINK_SetSpeed(50000) (0001ms, 0208ms total)
T1868 000:274 JLINK_GetId() >0x108 TIF>Found SWD-DP with ID 0x2BA01477 >0x0D TIF> >0x28 TIF> >0x0D TIF> >0x28 TIF> >0x0D TIF> >0x28 TIF> >0x0D TIF> >0x21 TIF> >0x0D TIF> >0x21 TIF> >0x108 TIF>Found SWD-DP with ID 0x2BA01477 >0x0D TIF> >0x28 TIF> >0x0D TIF> >0x28 TIF> >0x0D TIF> >0x28 TIF> >0x0D TIF> >0x28 TIF> >0x0D TIF> >0x21 TIF> >0x0D TIF> >0x28 TIF> >0x0D TIF> >0x28 TIF> >0x0D TIF> >0x21 TIF> >0x0D TIF> >0x21 TIF> >0x0D TIF> >0x21 TIF>AP-IDR: 0x24770011, Type: AHB-AP
AHB-AP ROM: 0xE00FF000 (Base addr. of first ROM table) >0x0D TIF> >0x28 TIF> >0x0D TIF> >0x28 TIF> >0x0D TIF> >0x28 TIF> >0x0D TIF> >0x21 TIF> >0x0D TIF> >0x21 TIF> >0x0D TIF> >0x28 TIF> >0x0D TIF> >0x21 TIF> >0x0D TIF> >0x21 TIF>Found Cortex-M4 r0p1, Little endian. -- CPU_ReadMem(4 bytes @ 0xE000EDF0) -- CPU_WriteMem(4 bytes @ 0xE000EDF0) -- CPU_ReadMem(4 bytes @ 0xE0002000)FPUnit: 6 code (BP) slots and 2 literal slots -- CPU_ReadMem(4 bytes @ 0xE000EDFC) -- CPU_WriteMem(4 bytes @ 0xE000EDFC)
 -- CPU_ReadMem(4 bytes @ 0xE0001000) -- CPU_WriteMem(4 bytes @ 0xE0001000) -- CPU_ReadMem(4 bytes @ 0xE000ED88) -- CPU_WriteMem(4 bytes @ 0xE000ED88) -- CPU_ReadMem(4 bytes @ 0xE000ED88) -- CPU_WriteMem(4 bytes @ 0xE000ED88)CoreSight components:ROMTbl 0 @ E00FF000 -- CPU_ReadMem(16 bytes @ 0xE00FF000) -- CPU_ReadMem(16 bytes @ 0xE000EFF0) -- CPU_ReadMem(16 bytes @ 0xE000EFE0)ROMTbl 0 [0]: FFF0F000, CID: B105E00D, PID: 000BB00C SCS -- CPU_ReadMem(16 bytes @ 0xE0001FF0)
 -- CPU_ReadMem(16 bytes @ 0xE0001FE0)ROMTbl 0 [1]: FFF02000, CID: B105E00D, PID: 003BB002 DWT -- CPU_ReadMem(16 bytes @ 0xE0002FF0) -- CPU_ReadMem(16 bytes @ 0xE0002FE0)ROMTbl 0 [2]: FFF03000, CID: B105E00D, PID: 002BB003 FPB -- CPU_ReadMem(16 bytes @ 0xE0000FF0) -- CPU_ReadMem(16 bytes @ 0xE0000FE0)ROMTbl 0 [3]: FFF01000, CID: B105E00D, PID: 003BB001 ITM -- CPU_ReadMem(16 bytes @ 0xE00FF010) -- CPU_ReadMem(16 bytes @ 0xE0040FF0) -- CPU_ReadMem(16 bytes @ 0xE0040FE0)
ROMTbl 0 [4]: FFF41000, CID: B105900D, PID: 000BB9A1 TPIU -- CPU_ReadMem(16 bytes @ 0xE0041FF0) -- CPU_ReadMem(16 bytes @ 0xE0041FE0)ROMTbl 0 [5]: FFF42000, CID: B105900D, PID: 000BB925 ETM >0x0D TIF> >0x21 TIF>  returns 0x2BA01477 (0108ms, 0316ms total)
T1868 000:382 JLINK_GetDLLVersion()  returns 61402 (0000ms, 0316ms total)
T1868 000:382 JLINK_CORE_GetFound()  returns 0xE0000FF (0000ms, 0316ms total)
T1868 000:382 JLINK_GetDebugInfo(0x100 = JLINKARM_ROM_TABLE_ADDR_INDEX) -- Value=0xE00FF000  returns 0x00 (0000ms, 0316ms total)
T1868 000:384 JLINK_GetDebugInfo(0x100 = JLINKARM_ROM_TABLE_ADDR_INDEX) -- Value=0xE00FF000  returns 0x00 (0000ms, 0316ms total)
T1868 000:384 JLINK_GetDebugInfo(0x101 = JLINKARM_DEBUG_INFO_ETM_ADDR_INDEX) -- Value=0xE0041000  returns 0x00 (0000ms, 0316ms total)
T1868 000:384 JLINK_GetDebugInfo(0x102 = JLINKARM_DEBUG_INFO_MTB_ADDR_INDEX) -- Value=0x00000000  returns 0x00 (0000ms, 0316ms total)
T1868 000:384 JLINK_GetDebugInfo(0x103 = JLINKARM_DEBUG_INFO_TPIU_ADDR_INDEX) -- Value=0xE0040000  returns 0x00 (0000ms, 0316ms total)
T1868 000:384 JLINK_GetDebugInfo(0x104 = JLINKARM_DEBUG_INFO_ITM_ADDR_INDEX) -- Value=0xE0000000  returns 0x00 (0000ms, 0316ms total)
T1868 000:384 JLINK_GetDebugInfo(0x105 = JLINKARM_DEBUG_INFO_DWT_ADDR_INDEX) -- Value=0xE0001000  returns 0x00 (0000ms, 0316ms total)
T1868 000:384 JLINK_GetDebugInfo(0x106 = JLINKARM_DEBUG_INFO_FPB_ADDR_INDEX) -- Value=0xE0002000  returns 0x00 (0000ms, 0316ms total)
T1868 000:384 JLINK_GetDebugInfo(0x107 = JLINKARM_DEBUG_INFO_NVIC_ADDR_INDEX) -- Value=0xE000E000  returns 0x00 (0000ms, 0316ms total)
T1868 000:384 JLINK_GetDebugInfo(0x10C = JLINKARM_DEBUG_INFO_DBG_ADDR_INDEX) -- Value=0xE000EDF0  returns 0x00 (0000ms, 0316ms total)
T1868 000:384 JLINK_ReadMemU32(0xE000EF40, 0x0001 Items, ...) -- CPU is running -- CPU_ReadMem(4 bytes @ 0xE000EF40) - Data: 21 00 11 10  returns 0x01 (0002ms, 0318ms total)
T1868 000:386 JLINK_ReadMemU32(0xE000EF44, 0x0001 Items, ...) -- CPU is running -- CPU_ReadMem(4 bytes @ 0xE000EF44) - Data: 11 00 00 11  returns 0x01 (0001ms, 0319ms total)
T1868 000:387 JLINK_ReadMemU32(0xE000ED00, 0x0001 Items, ...) -- CPU is running -- CPU_ReadMem(4 bytes @ 0xE000ED00) - Data: 41 C2 0F 41  returns 0x01 (0001ms, 0320ms total)
T1868 000:388 JLINK_SetResetType(JLINKARM_CM3_RESET_TYPE_NORMAL)  returns JLINKARM_CM3_RESET_TYPE_HALT_AFTER_BTL (0000ms, 0320ms total)
T1868 000:388 JLINK_Reset() -- CPU is running -- CPU_WriteMem(4 bytes @ 0xE000EDF0) -- CPU is running -- CPU_WriteMem(4 bytes @ 0xE000EDFC) >0x35 TIF> -- CPU is running -- CPU_WriteMem(4 bytes @ 0xE000ED0C) >0x0D TIF> >0x28 TIF> -- CPU is running -- CPU_ReadMem(4 bytes @ 0xE000EDF0) -- CPU is running -- CPU_ReadMem(4 bytes @ 0xE000EDF0) -- CPU is running -- CPU_WriteMem(4 bytes @ 0xE000EDF0) -- CPU is running -- CPU_WriteMem(4 bytes @ 0xE000EDFC) -- CPU is running -- CPU_ReadMem(4 bytes @ 0xE000EDF0)
 -- CPU_WriteMem(4 bytes @ 0xE000EDFC) -- CPU_WriteMem(4 bytes @ 0xE000EDFC) -- CPU_WriteMem(4 bytes @ 0xE000EDFC) -- CPU_WriteMem(4 bytes @ 0xE000EDFC) -- CPU_WriteMem(4 bytes @ 0xE000EDFC) -- CPU_WriteMem(4 bytes @ 0xE0001050) -- CPU_WriteMem(4 bytes @ 0xE0001054) -- CPU_WriteMem(4 bytes @ 0xE0001058) -- CPU_ReadMem(4 bytes @ 0xE0001000) -- CPU_WriteMem(4 bytes @ 0xE000EDFC) -- CPU_WriteMem(4 bytes @ 0xE0001058) -- CPU_ReadMem(4 bytes @ 0x00000004) -- CPU_ReadMem(4 bytes @ 0xE0002000)
 -- CPU_ReadMem(4 bytes @ 0xE0002008) -- CPU_ReadMem(4 bytes @ 0xE000200C) -- CPU_ReadMem(4 bytes @ 0xE0002010) -- CPU_ReadMem(4 bytes @ 0xE0002014) -- CPU_ReadMem(4 bytes @ 0xE0002018) -- CPU_ReadMem(4 bytes @ 0xE000201C) -- CPU_WriteMem(4 bytes @ 0xE0002000) -- CPU_WriteMem(4 bytes @ 0xE0002008) -- CPU_WriteMem(4 bytes @ 0xE000200C) -- CPU_WriteMem(4 bytes @ 0xE0002010) -- CPU_WriteMem(4 bytes @ 0xE0002014) -- CPU_WriteMem(4 bytes @ 0xE0002018) -- CPU_WriteMem(4 bytes @ 0xE000201C)
 -- CPU_ReadMem(4 bytes @ 0xE0001000)CPU did not halt after bootloader. -- CPU_WriteMem(4 bytes @ 0xE0002000) -- CPU_WriteMem(4 bytes @ 0xE0002008) -- CPU_WriteMem(4 bytes @ 0xE000200C) -- CPU_WriteMem(4 bytes @ 0xE0002010) -- CPU_WriteMem(4 bytes @ 0xE0002014) -- CPU_WriteMem(4 bytes @ 0xE0002018) -- CPU_WriteMem(4 bytes @ 0xE000201C) -- CPU_WriteMem(4 bytes @ 0xE0002000) -- CPU_ReadMem(4 bytes @ 0xE000EDFC) -- CPU_ReadMem(4 bytes @ 0xE0001000) (0433ms, 0753ms total)
T1868 000:821 JLINK_Halt()  returns 0x00 (0000ms, 0753ms total)
T1868 000:821 JLINK_IsHalted()  returns TRUE (0000ms, 0753ms total)
T1868 000:821 JLINK_ReadMemU32(0xE000EDF0, 0x0001 Items, ...) -- CPU_ReadMem(4 bytes @ 0xE000EDF0) - Data: 03 00 03 00  returns 0x01 (0002ms, 0755ms total)
T1868 000:823 JLINK_WriteU32(0xE000EDF0, 0xA05F0003) -- CPU_WriteMem(4 bytes @ 0xE000EDF0)  returns 0x00 (0001ms, 0756ms total)
T1868 000:824 JLINK_WriteU32(0xE000EDFC, 0x01000000) -- CPU_WriteMem(4 bytes @ 0xE000EDFC)  returns 0x00 (0001ms, 0757ms total)
T1868 000:836 JLINK_GetHWStatus(...)  returns 0x00 (0002ms, 0759ms total)
T1868 000:848 JLINK_GetNumBPUnits(Type = 0xFFFFFF00)  returns 0x06 (0000ms, 0759ms total)
T1868 000:848 JLINK_GetNumBPUnits(Type = 0xF0)  returns 0x2000 (0000ms, 0759ms total)
T1868 000:848 JLINK_GetNumWPUnits()  returns 0x04 (0000ms, 0759ms total)
T1868 000:855 JLINK_GetSpeed()  returns 0xFA0 (0000ms, 0759ms total)
T1868 000:858 JLINK_ReadMemU32(0xE000E004, 0x0001 Items, ...) -- CPU_ReadMem(4 bytes @ 0xE000E004) - Data: 01 00 00 00  returns 0x01 (0002ms, 0761ms total)
T1868 000:860 JLINK_ReadMemU32(0xE000E004, 0x0001 Items, ...) -- CPU_ReadMem(4 bytes @ 0xE000E004) - Data: 01 00 00 00  returns 0x01 (0001ms, 0762ms total)
T1868 000:861 JLINK_WriteMem(0xE0001000, 0x001C Bytes, ...) - Data: 01 00 00 00 00 00 00 00 00 00 00 00 00 00 00 00 ... -- CPU_WriteMem(28 bytes @ 0xE0001000)  returns 0x1C (0002ms, 0764ms total)
T1868 000:863 JLINK_ReadMem (0xE0001000, 0x001C Bytes, ...) -- CPU_ReadMem(28 bytes @ 0xE0001000) - Data: 01 00 00 40 00 00 00 00 00 00 00 00 00 00 00 00 ...  returns 0x00 (0001ms, 0765ms total)
T1868 000:864 JLINK_Halt()  returns 0x00 (0000ms, 0765ms total)
T1868 000:864 JLINK_IsHalted()  returns TRUE (0000ms, 0765ms total)
T1868 000:866 JLINK_WriteMem(0x20000000, 0x0178 Bytes, ...) - Data: 00 BE 0A E0 0D 78 2D 06 68 40 08 24 40 00 00 D3 ... -- CPU_WriteMem(376 bytes @ 0x20000000)  returns 0x178 (0003ms, 0768ms total)
T1868 000:869 JLINK_WriteReg(R0, 0x00000000)  returns 0x00 (0000ms, 0768ms total)
T1868 000:869 JLINK_WriteReg(R1, 0x00B71B00)  returns 0x00 (0000ms, 0768ms total)
T1868 000:869 JLINK_WriteReg(R2, 0x00000001)  returns 0x00 (0000ms, 0768ms total)
T1868 000:869 JLINK_WriteReg(R3, 0x00000000)  returns 0x00 (0000ms, 0768ms total)
T1868 000:869 JLINK_WriteReg(R4, 0x00000000)  returns 0x00 (0000ms, 0768ms total)
T1868 000:869 JLINK_WriteReg(R5, 0x00000000)  returns 0x00 (0000ms, 0768ms total)
T1868 000:869 JLINK_WriteReg(R6, 0x00000000)  returns 0x00 (0000ms, 0768ms total)
T1868 000:869 JLINK_WriteReg(R7, 0x00000000)  returns 0x00 (0000ms, 0768ms total)
T1868 000:870 JLINK_WriteReg(R8, 0x00000000)  returns 0x00 (0000ms, 0769ms total)
T1868 000:870 JLINK_WriteReg(R9, 0x20000170)  returns 0x00 (0000ms, 0769ms total)
T1868 000:870 JLINK_WriteReg(R10, 0x00000000)  returns 0x00 (0000ms, 0769ms total)
T1868 000:870 JLINK_WriteReg(R11, 0x00000000)  returns 0x00 (0000ms, 0769ms total)
T1868 000:870 JLINK_WriteReg(R12, 0x00000000)  returns 0x00 (0000ms, 0769ms total)
T1868 000:870 JLINK_WriteReg(R13 (SP), 0x20001000)  returns 0x00 (0000ms, 0769ms total)
T1868 000:870 JLINK_WriteReg(R14, 0x20000001)  returns 0x00 (0000ms, 0769ms total)
T1868 000:870 JLINK_WriteReg(R15 (PC), 0x2000003C)  returns 0x00 (0000ms, 0769ms total)
T1868 000:870 JLINK_WriteReg(XPSR, 0x01000000)  returns 0x00 (0000ms, 0769ms total)
T1868 000:870 JLINK_WriteReg(MSP, 0x20001000)  returns 0x00 (0000ms, 0769ms total)
T1868 000:870 JLINK_WriteReg(PSP, 0x20001000)  returns 0x00 (0000ms, 0769ms total)
T1868 000:870 JLINK_WriteReg(CFBP, 0x00000000)  returns 0x00 (0000ms, 0769ms total)
T1868 000:870 JLINK_SetBPEx(Addr = 0x20000000, Type = 0xFFFFFFF2) -- CPU_ReadMem(2 bytes @ 0x20000000)  returns 0x00000001 (0000ms, 0769ms total)
T1868 000:870 JLINK_Go() -- CPU_WriteMem(2 bytes @ 0x20000000) -- CPU_ReadMem(4 bytes @ 0xE0001000) -- CPU_WriteMem(4 bytes @ 0xE0002008) -- CPU_WriteMem(4 bytes @ 0xE000200C) -- CPU_WriteMem(4 bytes @ 0xE0002010) -- CPU_WriteMem(4 bytes @ 0xE0002014) -- CPU_WriteMem(4 bytes @ 0xE0002018) -- CPU_WriteMem(4 bytes @ 0xE000201C) -- CPU_WriteMem(4 bytes @ 0xE0001004) (0012ms, 0781ms total)
T1868 000:882 JLINK_IsHalted() -- CPU_ReadMem(2 bytes @ 0x20000000)  returns TRUE (0004ms, 0785ms total)
T1868 000:886 JLINK_ReadReg(R15 (PC))  returns 0x20000000 (0000ms, 0785ms total)
T1868 000:886 JLINK_ClrBPEx(BPHandle = 0x00000001)  returns 0x00 (0000ms, 0785ms total)
T1868 000:886 JLINK_ReadReg(R0)  returns 0x00000000 (0000ms, 0785ms total)
T1868 000:887 JLINK_WriteReg(R0, 0x00000000)  returns 0x00 (0000ms, 0785ms total)
T1868 000:887 JLINK_WriteReg(R1, 0x00008000)  returns 0x00 (0000ms, 0785ms total)
T1868 000:887 JLINK_WriteReg(R2, 0x000000FF)  returns 0x00 (0000ms, 0785ms total)
T1868 000:887 JLINK_WriteReg(R3, 0x00000000)  returns 0x00 (0000ms, 0785ms total)
T1868 000:887 JLINK_WriteReg(R4, 0x00000000)  returns 0x00 (0000ms, 0785ms total)
T1868 000:887 JLINK_WriteReg(R5, 0x00000000)  returns 0x00 (0000ms, 0785ms total)
T1868 000:887 JLINK_WriteReg(R6, 0x00000000)  returns 0x00 (0000ms, 0785ms total)
T1868 000:887 JLINK_WriteReg(R7, 0x00000000)  returns 0x00 (0000ms, 0785ms total)
T1868 000:887 JLINK_WriteReg(R8, 0x00000000)  returns 0x00 (0000ms, 0785ms total)
T1868 000:887 JLINK_WriteReg(R9, 0x20000170)  returns 0x00 (0000ms, 0785ms total)
T1868 000:887 JLINK_WriteReg(R10, 0x00000000)  returns 0x00 (0000ms, 0785ms total)
T1868 000:887 JLINK_WriteReg(R11, 0x00000000)  returns 0x00 (0000ms, 0785ms total)
T1868 000:887 JLINK_WriteReg(R12, 0x00000000)  returns 0x00 (0000ms, 0785ms total)
T1868 000:887 JLINK_WriteReg(R13 (SP), 0x20001000)  returns 0x00 (0000ms, 0785ms total)
T1868 000:887 JLINK_WriteReg(R14, 0x20000001)  returns 0x00 (0000ms, 0785ms total)
T1868 000:887 JLINK_WriteReg(R15 (PC), 0x20000020)  returns 0x00 (0000ms, 0785ms total)
T1868 000:887 JLINK_WriteReg(XPSR, 0x01000000)  returns 0x00 (0000ms, 0785ms total)
T1868 000:887 JLINK_WriteReg(MSP, 0x20001000)  returns 0x00 (0000ms, 0785ms total)
T1868 000:887 JLINK_WriteReg(PSP, 0x20001000)  returns 0x00 (0000ms, 0785ms total)
T1868 000:887 JLINK_WriteReg(CFBP, 0x00000000)  returns 0x00 (0000ms, 0785ms total)
T1868 000:887 JLINK_SetBPEx(Addr = 0x20000000, Type = 0xFFFFFFF2)  returns 0x00000002 (0000ms, 0785ms total)
T1868 000:887 JLINK_Go() -- CPU_ReadMem(4 bytes @ 0xE0001000) (0003ms, 0788ms total)
T1868 000:890 JLINK_IsHalted() -- CPU_ReadMem(2 bytes @ 0x20000000)  returns TRUE (0004ms, 0792ms total)
T1868 000:894 JLINK_ReadReg(R15 (PC))  returns 0x20000000 (0000ms, 0788ms total)
T1868 000:894 JLINK_ClrBPEx(BPHandle = 0x00000002)  returns 0x00 (0000ms, 0788ms total)
T1868 000:894 JLINK_ReadReg(R0)  returns 0x00000001 (0000ms, 0788ms total)
T1868 000:894 JLINK_WriteReg(R0, 0x00000000)  returns 0x00 (0000ms, 0788ms total)
T1868 000:894 JLINK_WriteReg(R1, 0x00008000)  returns 0x00 (0000ms, 0788ms total)
T1868 000:894 JLINK_WriteReg(R2, 0x000000FF)  returns 0x00 (0001ms, 0789ms total)
T1868 000:895 JLINK_WriteReg(R3, 0x00000000)  returns 0x00 (0000ms, 0789ms total)
T1868 000:895 JLINK_WriteReg(R4, 0x00000000)  returns 0x00 (0000ms, 0789ms total)
T1868 000:895 JLINK_WriteReg(R5, 0x00000000)  returns 0x00 (0000ms, 0789ms total)
T1868 000:895 JLINK_WriteReg(R6, 0x00000000)  returns 0x00 (0000ms, 0789ms total)
T1868 000:895 JLINK_WriteReg(R7, 0x00000000)  returns 0x00 (0000ms, 0789ms total)
T1868 000:895 JLINK_WriteReg(R8, 0x00000000)  returns 0x00 (0000ms, 0789ms total)
T1868 000:895 JLINK_WriteReg(R9, 0x20000170)  returns 0x00 (0000ms, 0789ms total)
T1868 000:895 JLINK_WriteReg(R10, 0x00000000)  returns 0x00 (0000ms, 0789ms total)
T1868 000:895 JLINK_WriteReg(R11, 0x00000000)  returns 0x00 (0000ms, 0789ms total)
T1868 000:895 JLINK_WriteReg(R12, 0x00000000)  returns 0x00 (0000ms, 0789ms total)
T1868 000:895 JLINK_WriteReg(R13 (SP), 0x20001000)  returns 0x00 (0000ms, 0789ms total)
T1868 000:895 JLINK_WriteReg(R14, 0x20000001)  returns 0x00 (0000ms, 0789ms total)
T1868 000:895 JLINK_WriteReg(R15 (PC), 0x200000A2)  returns 0x00 (0000ms, 0789ms total)
T1868 000:895 JLINK_WriteReg(XPSR, 0x01000000)  returns 0x00 (0000ms, 0789ms total)
T1868 000:895 JLINK_WriteReg(MSP, 0x20001000)  returns 0x00 (0000ms, 0789ms total)
T1868 000:895 JLINK_WriteReg(PSP, 0x20001000)  returns 0x00 (0000ms, 0789ms total)
T1868 000:895 JLINK_WriteReg(CFBP, 0x00000000)  returns 0x00 (0000ms, 0789ms total)
T1868 000:895 JLINK_SetBPEx(Addr = 0x20000000, Type = 0xFFFFFFF2)  returns 0x00000003 (0000ms, 0789ms total)
T1868 000:895 JLINK_Go() -- CPU_ReadMem(4 bytes @ 0xE0001000) (0002ms, 0791ms total)
T1868 000:897 JLINK_IsHalted()  returns FALSE (0001ms, 0792ms total)
T1868 000:946 JLINK_IsHalted()  returns FALSE (0001ms, 0792ms total)
T1868 000:948 JLINK_IsHalted()  returns FALSE (0001ms, 0792ms total)
T1868 000:950 JLINK_IsHalted()  returns FALSE (0001ms, 0792ms total)
T1868 000:952 JLINK_IsHalted()  returns FALSE (0001ms, 0792ms total)
T1868 000:958 JLINK_IsHalted()  returns FALSE (0001ms, 0792ms total)
T1868 000:960 JLINK_IsHalted()  returns FALSE (0001ms, 0792ms total)
T1868 000:962 JLINK_IsHalted()  returns FALSE (0001ms, 0792ms total)
T1868 000:964 JLINK_IsHalted()  returns FALSE (0001ms, 0792ms total)
T1868 000:966 JLINK_IsHalted()  returns FALSE (0001ms, 0792ms total)
T1868 000:973 JLINK_IsHalted()  returns FALSE (0001ms, 0792ms total)
T1868 000:975 JLINK_IsHalted()  returns FALSE (0001ms, 0792ms total)
T1868 000:977 JLINK_IsHalted()  returns FALSE (0001ms, 0792ms total)
T1868 000:979 JLINK_IsHalted()  returns FALSE (0001ms, 0792ms total)
T1868 000:981 JLINK_IsHalted()  returns FALSE (0001ms, 0792ms total)
T1868 000:983 JLINK_IsHalted()  returns FALSE (0001ms, 0792ms total)
T1868 000:985 JLINK_IsHalted()  returns FALSE (0000ms, 0791ms total)
T1868 000:986 JLINK_IsHalted()  returns FALSE (0000ms, 0791ms total)
T1868 000:987 JLINK_IsHalted()  returns FALSE (0000ms, 0791ms total)
T1868 000:988 JLINK_IsHalted()  returns FALSE (0000ms, 0791ms total)
T1868 000:989 JLINK_IsHalted()  returns FALSE (0000ms, 0791ms total)
T1868 000:990 JLINK_IsHalted()  returns FALSE (0001ms, 0792ms total)
T1868 000:992 JLINK_IsHalted()  returns FALSE (0001ms, 0792ms total)
T1868 000:994 JLINK_IsHalted()  returns FALSE (0000ms, 0791ms total)
T1868 000:995 JLINK_IsHalted()  returns FALSE (0000ms, 0791ms total)
T1868 000:996 JLINK_IsHalted()  returns FALSE (0000ms, 0791ms total)
T1868 000:997 JLINK_IsHalted() -- CPU_ReadMem(2 bytes @ 0x20000000)  returns TRUE (0003ms, 0794ms total)
T1868 001:000 JLINK_ReadReg(R15 (PC))  returns 0x20000000 (0000ms, 0791ms total)
T1868 001:000 JLINK_ClrBPEx(BPHandle = 0x00000003)  returns 0x00 (0000ms, 0791ms total)
T1868 001:000 JLINK_ReadReg(R0)  returns 0x00000000 (0000ms, 0791ms total)
T1868 001:001 JLINK_WriteReg(R0, 0x00008000)  returns 0x00 (0000ms, 0791ms total)
T1868 001:001 JLINK_WriteReg(R1, 0x00008000)  returns 0x00 (0000ms, 0791ms total)
T1868 001:001 JLINK_WriteReg(R2, 0x000000FF)  returns 0x00 (0000ms, 0791ms total)
T1868 001:001 JLINK_WriteReg(R3, 0x00000000)  returns 0x00 (0000ms, 0791ms total)
T1868 001:001 JLINK_WriteReg(R4, 0x00000000)  returns 0x00 (0000ms, 0791ms total)
T1868 001:001 JLINK_WriteReg(R5, 0x00000000)  returns 0x00 (0000ms, 0791ms total)
T1868 001:001 JLINK_WriteReg(R6, 0x00000000)  returns 0x00 (0000ms, 0791ms total)
T1868 001:001 JLINK_WriteReg(R7, 0x00000000)  returns 0x00 (0000ms, 0791ms total)
T1868 001:001 JLINK_WriteReg(R8, 0x00000000)  returns 0x00 (0000ms, 0791ms total)
T1868 001:001 JLINK_WriteReg(R9, 0x20000170)  returns 0x00 (0000ms, 0791ms total)
T1868 001:001 JLINK_WriteReg(R10, 0x00000000)  returns 0x00 (0000ms, 0791ms total)
T1868 001:001 JLINK_WriteReg(R11, 0x00000000)  returns 0x00 (0000ms, 0791ms total)
T1868 001:001 JLINK_WriteReg(R12, 0x00000000)  returns 0x00 (0000ms, 0791ms total)
T1868 001:001 JLINK_WriteReg(R13 (SP), 0x20001000)  returns 0x00 (0000ms, 0791ms total)
T1868 001:001 JLINK_WriteReg(R14, 0x20000001)  returns 0x00 (0000ms, 0791ms total)
T1868 001:001 JLINK_WriteReg(R15 (PC), 0x20000020)  returns 0x00 (0000ms, 0791ms total)
T1868 001:001 JLINK_WriteReg(XPSR, 0x01000000)  returns 0x00 (0000ms, 0791ms total)
T1868 001:001 JLINK_WriteReg(MSP, 0x20001000)  returns 0x00 (0000ms, 0791ms total)
T1868 001:001 JLINK_WriteReg(PSP, 0x20001000)  returns 0x00 (0000ms, 0791ms total)
T1868 001:001 JLINK_WriteReg(CFBP, 0x00000000)  returns 0x00 (0000ms, 0791ms total)
T1868 001:001 JLINK_SetBPEx(Addr = 0x20000000, Type = 0xFFFFFFF2)  returns 0x00000004 (0000ms, 0791ms total)
T1868 001:001 JLINK_Go() -- CPU_ReadMem(4 bytes @ 0xE0001000) (0003ms, 0794ms total)
T1868 001:004 JLINK_IsHalted() -- CPU_ReadMem(2 bytes @ 0x20000000)  returns TRUE (0004ms, 0798ms total)
T1868 001:008 JLINK_ReadReg(R15 (PC))  returns 0x20000000 (0000ms, 0794ms total)
T1868 001:008 JLINK_ClrBPEx(BPHandle = 0x00000004)  returns 0x00 (0000ms, 0794ms total)
T1868 001:008 JLINK_ReadReg(R0)  returns 0x00000001 (0000ms, 0794ms total)
T1868 001:008 JLINK_WriteReg(R0, 0x00008000)  returns 0x00 (0000ms, 0794ms total)
T1868 001:008 JLINK_WriteReg(R1, 0x00008000)  returns 0x00 (0000ms, 0794ms total)
T1868 001:008 JLINK_WriteReg(R2, 0x000000FF)  returns 0x00 (0000ms, 0794ms total)
T1868 001:008 JLINK_WriteReg(R3, 0x00000000)  returns 0x00 (0000ms, 0794ms total)
T1868 001:008 JLINK_WriteReg(R4, 0x00000000)  returns 0x00 (0000ms, 0794ms total)
T1868 001:008 JLINK_WriteReg(R5, 0x00000000)  returns 0x00 (0000ms, 0794ms total)
T1868 001:008 JLINK_WriteReg(R6, 0x00000000)  returns 0x00 (0000ms, 0794ms total)
T1868 001:008 JLINK_WriteReg(R7, 0x00000000)  returns 0x00 (0000ms, 0794ms total)
T1868 001:008 JLINK_WriteReg(R8, 0x00000000)  returns 0x00 (0000ms, 0794ms total)
T1868 001:008 JLINK_WriteReg(R9, 0x20000170)  returns 0x00 (0000ms, 0794ms total)
T1868 001:008 JLINK_WriteReg(R10, 0x00000000)  returns 0x00 (0000ms, 0794ms total)
T1868 001:008 JLINK_WriteReg(R11, 0x00000000)  returns 0x00 (0000ms, 0794ms total)
T1868 001:008 JLINK_WriteReg(R12, 0x00000000)  returns 0x00 (0000ms, 0794ms total)
T1868 001:008 JLINK_WriteReg(R13 (SP), 0x20001000)  returns 0x00 (0000ms, 0794ms total)
T1868 001:008 JLINK_WriteReg(R14, 0x20000001)  returns 0x00 (0000ms, 0794ms total)
T1868 001:008 JLINK_WriteReg(R15 (PC), 0x200000A2)  returns 0x00 (0001ms, 0795ms total)
T1868 001:009 JLINK_WriteReg(XPSR, 0x01000000)  returns 0x00 (0000ms, 0795ms total)
T1868 001:009 JLINK_WriteReg(MSP, 0x20001000)  returns 0x00 (0000ms, 0795ms total)
T1868 001:009 JLINK_WriteReg(PSP, 0x20001000)  returns 0x00 (0000ms, 0795ms total)
T1868 001:009 JLINK_WriteReg(CFBP, 0x00000000)  returns 0x00 (0000ms, 0795ms total)
T1868 001:009 JLINK_SetBPEx(Addr = 0x20000000, Type = 0xFFFFFFF2)  returns 0x00000005 (0000ms, 0795ms total)
T1868 001:009 JLINK_Go() -- CPU_ReadMem(4 bytes @ 0xE0001000) (0002ms, 0797ms total)
T1868 001:011 JLINK_IsHalted()  returns FALSE (0001ms, 0798ms total)
T1868 001:014 JLINK_IsHalted()  returns FALSE (0001ms, 0798ms total)
T1868 001:018 JLINK_IsHalted()  returns FALSE (0001ms, 0798ms total)
T1868 001:020 JLINK_IsHalted()  returns FALSE (0001ms, 0798ms total)
T1868 001:022 JLINK_IsHalted()  returns FALSE (0001ms, 0798ms total)
T1868 001:024 JLINK_IsHalted()  returns FALSE (0000ms, 0797ms total)
T1868 001:025 JLINK_IsHalted()  returns FALSE (0000ms, 0797ms total)
T1868 001:026 JLINK_IsHalted()  returns FALSE (0000ms, 0797ms total)
T1868 001:027 JLINK_IsHalted()  returns FALSE (0000ms, 0797ms total)
T1868 001:028 JLINK_IsHalted()  returns FALSE (0000ms, 0797ms total)
T1868 001:029 JLINK_IsHalted()  returns FALSE (0000ms, 0797ms total)
T1868 001:030 JLINK_IsHalted()  returns FALSE (0000ms, 0797ms total)
T1868 001:031 JLINK_IsHalted()  returns FALSE (0000ms, 0797ms total)
T1868 001:032 JLINK_IsHalted()  returns FALSE (0001ms, 0798ms total)
T1868 001:034 JLINK_IsHalted()  returns FALSE (0000ms, 0797ms total)
T1868 001:035 JLINK_IsHalted()  returns FALSE (0001ms, 0798ms total)
T1868 001:037 JLINK_IsHalted()  returns FALSE (0000ms, 0797ms total)
T1868 001:038 JLINK_IsHalted()  returns FALSE (0000ms, 0797ms total)
T1868 001:039 JLINK_IsHalted()  returns FALSE (0000ms, 0797ms total)
T1868 001:040 JLINK_IsHalted()  returns FALSE (0000ms, 0797ms total)
T1868 001:041 JLINK_IsHalted()  returns FALSE (0000ms, 0797ms total)
T1868 001:042 JLINK_IsHalted()  returns FALSE (0001ms, 0798ms total)
T1868 001:044 JLINK_IsHalted()  returns FALSE (0000ms, 0797ms total)
T1868 001:045 JLINK_IsHalted()  returns FALSE (0000ms, 0797ms total)
T1868 001:046 JLINK_IsHalted()  returns FALSE (0000ms, 0797ms total)
T1868 001:047 JLINK_IsHalted()  returns FALSE (0000ms, 0797ms total)
T1868 001:048 JLINK_IsHalted()  returns FALSE (0000ms, 0797ms total)
T1868 001:049 JLINK_IsHalted()  returns FALSE (0000ms, 0797ms total)
T1868 001:050 JLINK_IsHalted()  returns FALSE (0000ms, 0797ms total)
T1868 001:051 JLINK_IsHalted()  returns FALSE (0000ms, 0797ms total)
T1868 001:052 JLINK_IsHalted()  returns FALSE (0000ms, 0797ms total)
T1868 001:053 JLINK_IsHalted()  returns FALSE (0000ms, 0797ms total)
T1868 001:054 JLINK_IsHalted()  returns FALSE (0000ms, 0797ms total)
T1868 001:055 JLINK_IsHalted()  returns FALSE (0001ms, 0798ms total)
T1868 001:057 JLINK_IsHalted()  returns FALSE (0000ms, 0797ms total)
T1868 001:058 JLINK_IsHalted()  returns FALSE (0001ms, 0798ms total)
T1868 001:060 JLINK_IsHalted()  returns FALSE (0000ms, 0797ms total)
T1868 001:061 JLINK_IsHalted()  returns FALSE (0000ms, 0797ms total)
T1868 001:062 JLINK_IsHalted()  returns FALSE (0000ms, 0797ms total)
T1868 001:063 JLINK_IsHalted()  returns FALSE (0000ms, 0797ms total)
T1868 001:064 JLINK_IsHalted()  returns FALSE (0001ms, 0798ms total)
T1868 001:066 JLINK_IsHalted()  returns FALSE (0000ms, 0797ms total)
T1868 001:067 JLINK_IsHalted()  returns FALSE (0000ms, 0797ms total)
T1868 001:068 JLINK_IsHalted()  returns FALSE (0001ms, 0798ms total)
T1868 001:070 JLINK_IsHalted()  returns FALSE (0000ms, 0797ms total)
T1868 001:071 JLINK_IsHalted()  returns FALSE (0001ms, 0798ms total)
T1868 001:073 JLINK_IsHalted()  returns FALSE (0001ms, 0798ms total)
T1868 001:075 JLINK_IsHalted()  returns FALSE (0000ms, 0797ms total)
T1868 001:076 JLINK_IsHalted()  returns FALSE (0000ms, 0797ms total)
T1868 001:077 JLINK_IsHalted()  returns FALSE (0000ms, 0797ms total)
T1868 001:078 JLINK_IsHalted()  returns FALSE (0000ms, 0797ms total)
T1868 001:079 JLINK_IsHalted()  returns FALSE (0000ms, 0797ms total)
T1868 001:086 JLINK_IsHalted()  returns FALSE (0001ms, 0798ms total)
T1868 001:088 JLINK_IsHalted()  returns FALSE (0001ms, 0798ms total)
T1868 001:090 JLINK_IsHalted()  returns FALSE (0001ms, 0798ms total)
T1868 001:092 JLINK_IsHalted()  returns FALSE (0001ms, 0798ms total)
T1868 001:094 JLINK_IsHalted()  returns FALSE (0001ms, 0798ms total)
T1868 001:096 JLINK_IsHalted()  returns FALSE (0001ms, 0798ms total)
T1868 001:098 JLINK_IsHalted()  returns FALSE (0001ms, 0798ms total)
T1868 001:100 JLINK_IsHalted()  returns FALSE (0000ms, 0797ms total)
T1868 001:101 JLINK_IsHalted()  returns FALSE (0001ms, 0798ms total)
T1868 001:103 JLINK_IsHalted()  returns FALSE (0000ms, 0797ms total)
T1868 001:104 JLINK_IsHalted()  returns FALSE (0001ms, 0798ms total)
T1868 001:106 JLINK_IsHalted()  returns FALSE (0001ms, 0798ms total)
T1868 001:108 JLINK_IsHalted()  returns FALSE (0001ms, 0798ms total)
T1868 001:110 JLINK_IsHalted()  returns FALSE (0001ms, 0798ms total)
T1868 001:112 JLINK_IsHalted() -- CPU_ReadMem(2 bytes @ 0x20000000)  returns TRUE (0004ms, 0801ms total)
T1868 001:116 JLINK_ReadReg(R15 (PC))  returns 0x20000000 (0000ms, 0797ms total)
T1868 001:116 JLINK_ClrBPEx(BPHandle = 0x00000005)  returns 0x00 (0000ms, 0797ms total)
T1868 001:116 JLINK_ReadReg(R0)  returns 0x00000000 (0000ms, 0797ms total)
T1868 001:116 JLINK_WriteReg(R0, 0x00010000)  returns 0x00 (0000ms, 0797ms total)
T1868 001:116 JLINK_WriteReg(R1, 0x00008000)  returns 0x00 (0000ms, 0797ms total)
T1868 001:116 JLINK_WriteReg(R2, 0x000000FF)  returns 0x00 (0000ms, 0797ms total)
T1868 001:116 JLINK_WriteReg(R3, 0x00000000)  returns 0x00 (0000ms, 0797ms total)
T1868 001:117 JLINK_WriteReg(R4, 0x00000000)  returns 0x00 (0000ms, 0798ms total)
T1868 001:117 JLINK_WriteReg(R5, 0x00000000)  returns 0x00 (0000ms, 0798ms total)
T1868 001:117 JLINK_WriteReg(R6, 0x00000000)  returns 0x00 (0000ms, 0798ms total)
T1868 001:117 JLINK_WriteReg(R7, 0x00000000)  returns 0x00 (0000ms, 0798ms total)
T1868 001:117 JLINK_WriteReg(R8, 0x00000000)  returns 0x00 (0000ms, 0798ms total)
T1868 001:117 JLINK_WriteReg(R9, 0x20000170)  returns 0x00 (0000ms, 0798ms total)
T1868 001:117 JLINK_WriteReg(R10, 0x00000000)  returns 0x00 (0000ms, 0798ms total)
T1868 001:117 JLINK_WriteReg(R11, 0x00000000)  returns 0x00 (0000ms, 0798ms total)
T1868 001:117 JLINK_WriteReg(R12, 0x00000000)  returns 0x00 (0000ms, 0798ms total)
T1868 001:117 JLINK_WriteReg(R13 (SP), 0x20001000)  returns 0x00 (0000ms, 0798ms total)
T1868 001:117 JLINK_WriteReg(R14, 0x20000001)  returns 0x00 (0000ms, 0798ms total)
T1868 001:117 JLINK_WriteReg(R15 (PC), 0x20000020)  returns 0x00 (0000ms, 0798ms total)
T1868 001:117 JLINK_WriteReg(XPSR, 0x01000000)  returns 0x00 (0000ms, 0798ms total)
T1868 001:117 JLINK_WriteReg(MSP, 0x20001000)  returns 0x00 (0000ms, 0798ms total)
T1868 001:117 JLINK_WriteReg(PSP, 0x20001000)  returns 0x00 (0000ms, 0798ms total)
T1868 001:117 JLINK_WriteReg(CFBP, 0x00000000)  returns 0x00 (0000ms, 0798ms total)
T1868 001:117 JLINK_SetBPEx(Addr = 0x20000000, Type = 0xFFFFFFF2)  returns 0x00000006 (0000ms, 0798ms total)
T1868 001:117 JLINK_Go() -- CPU_ReadMem(4 bytes @ 0xE0001000) (0003ms, 0801ms total)
T1868 001:120 JLINK_IsHalted() -- CPU_ReadMem(2 bytes @ 0x20000000)  returns TRUE (0004ms, 0805ms total)
T1868 001:124 JLINK_ReadReg(R15 (PC))  returns 0x20000000 (0000ms, 0801ms total)
T1868 001:124 JLINK_ClrBPEx(BPHandle = 0x00000006)  returns 0x00 (0000ms, 0801ms total)
T1868 001:124 JLINK_ReadReg(R0)  returns 0x00000001 (0000ms, 0801ms total)
T1868 001:124 JLINK_WriteReg(R0, 0x00010000)  returns 0x00 (0000ms, 0801ms total)
T1868 001:124 JLINK_WriteReg(R1, 0x00008000)  returns 0x00 (0000ms, 0801ms total)
T1868 001:124 JLINK_WriteReg(R2, 0x000000FF)  returns 0x00 (0000ms, 0801ms total)
T1868 001:124 JLINK_WriteReg(R3, 0x00000000)  returns 0x00 (0000ms, 0801ms total)
T1868 001:124 JLINK_WriteReg(R4, 0x00000000)  returns 0x00 (0000ms, 0801ms total)
T1868 001:124 JLINK_WriteReg(R5, 0x00000000)  returns 0x00 (0000ms, 0801ms total)
T1868 001:124 JLINK_WriteReg(R6, 0x00000000)  returns 0x00 (0000ms, 0801ms total)
T1868 001:124 JLINK_WriteReg(R7, 0x00000000)  returns 0x00 (0000ms, 0801ms total)
T1868 001:124 JLINK_WriteReg(R8, 0x00000000)  returns 0x00 (0000ms, 0801ms total)
T1868 001:124 JLINK_WriteReg(R9, 0x20000170)  returns 0x00 (0000ms, 0801ms total)
T1868 001:124 JLINK_WriteReg(R10, 0x00000000)  returns 0x00 (0000ms, 0801ms total)
T1868 001:124 JLINK_WriteReg(R11, 0x00000000)  returns 0x00 (0000ms, 0801ms total)
T1868 001:124 JLINK_WriteReg(R12, 0x00000000)  returns 0x00 (0000ms, 0801ms total)
T1868 001:124 JLINK_WriteReg(R13 (SP), 0x20001000)  returns 0x00 (0000ms, 0801ms total)
T1868 001:124 JLINK_WriteReg(R14, 0x20000001)  returns 0x00 (0000ms, 0801ms total)
T1868 001:124 JLINK_WriteReg(R15 (PC), 0x200000A2)  returns 0x00 (0000ms, 0801ms total)
T1868 001:124 JLINK_WriteReg(XPSR, 0x01000000)  returns 0x00 (0000ms, 0801ms total)
T1868 001:124 JLINK_WriteReg(MSP, 0x20001000)  returns 0x00 (0000ms, 0801ms total)
T1868 001:124 JLINK_WriteReg(PSP, 0x20001000)  returns 0x00 (0000ms, 0801ms total)
T1868 001:124 JLINK_WriteReg(CFBP, 0x00000000)  returns 0x00 (0000ms, 0801ms total)
T1868 001:124 JLINK_SetBPEx(Addr = 0x20000000, Type = 0xFFFFFFF2)  returns 0x00000007 (0000ms, 0801ms total)
T1868 001:124 JLINK_Go() -- CPU_ReadMem(4 bytes @ 0xE0001000) (0003ms, 0804ms total)
T1868 001:127 JLINK_IsHalted()  returns FALSE (0001ms, 0805ms total)
T1868 001:129 JLINK_IsHalted()  returns FALSE (0001ms, 0805ms total)
T1868 001:131 JLINK_IsHalted()  returns FALSE (0000ms, 0804ms total)
T1868 001:132 JLINK_IsHalted()  returns FALSE (0000ms, 0804ms total)
T1868 001:133 JLINK_IsHalted()  returns FALSE (0000ms, 0804ms total)
T1868 001:134 JLINK_IsHalted()  returns FALSE (0000ms, 0804ms total)
T1868 001:135 JLINK_IsHalted()  returns FALSE (0001ms, 0805ms total)
T1868 001:137 JLINK_IsHalted()  returns FALSE (0000ms, 0805ms total)
T1868 001:138 JLINK_IsHalted()  returns FALSE (0001ms, 0806ms total)
T1868 001:140 JLINK_IsHalted()  returns FALSE (0000ms, 0805ms total)
T1868 001:141 JLINK_IsHalted()  returns FALSE (0000ms, 0805ms total)
T1868 001:142 JLINK_IsHalted()  returns FALSE (0006ms, 0811ms total)
T1868 001:156 JLINK_IsHalted()  returns FALSE (0001ms, 0806ms total)
T1868 001:158 JLINK_IsHalted()  returns FALSE (0001ms, 0806ms total)
T1868 001:160 JLINK_IsHalted()  returns FALSE (0001ms, 0806ms total)
T1868 001:162 JLINK_IsHalted()  returns FALSE (0001ms, 0806ms total)
T1868 001:164 JLINK_IsHalted()  returns FALSE (0001ms, 0806ms total)
T1868 001:166 JLINK_IsHalted()  returns FALSE (0001ms, 0806ms total)
T1868 001:168 JLINK_IsHalted()  returns FALSE (0001ms, 0806ms total)
T1868 001:170 JLINK_IsHalted()  returns FALSE (0001ms, 0806ms total)
T1868 001:172 JLINK_IsHalted()  returns FALSE (0001ms, 0806ms total)
T1868 001:174 JLINK_IsHalted()  returns FALSE (0001ms, 0806ms total)
T1868 001:176 JLINK_IsHalted()  returns FALSE (0001ms, 0806ms total)
T1868 001:178 JLINK_IsHalted()  returns FALSE (0001ms, 0806ms total)
T1868 001:180 JLINK_IsHalted()  returns FALSE (0001ms, 0806ms total)
T1868 001:182 JLINK_IsHalted()  returns FALSE (0001ms, 0806ms total)
T1868 001:184 JLINK_IsHalted()  returns FALSE (0001ms, 0806ms total)
T1868 001:186 JLINK_IsHalted()  returns FALSE (0001ms, 0806ms total)
T1868 001:195 JLINK_IsHalted()  returns FALSE (0001ms, 0806ms total)
T1868 001:197 JLINK_IsHalted()  returns FALSE (0001ms, 0806ms total)
T1868 001:199 JLINK_IsHalted()  returns FALSE (0000ms, 0805ms total)
T1868 001:200 JLINK_IsHalted()  returns FALSE (0001ms, 0806ms total)
T1868 001:202 JLINK_IsHalted()  returns FALSE (0000ms, 0805ms total)
T1868 001:204 JLINK_IsHalted()  returns FALSE (0001ms, 0806ms total)
T1868 001:206 JLINK_IsHalted()  returns FALSE (0001ms, 0806ms total)
T1868 001:208 JLINK_IsHalted()  returns FALSE (0001ms, 0806ms total)
T1868 001:210 JLINK_IsHalted()  returns FALSE (0000ms, 0805ms total)
T1868 001:211 JLINK_IsHalted()  returns FALSE (0001ms, 0806ms total)
T1868 001:213 JLINK_IsHalted()  returns FALSE (0001ms, 0807ms total)
T1868 001:215 JLINK_IsHalted()  returns FALSE (0000ms, 0806ms total)
T1868 001:216 JLINK_IsHalted()  returns FALSE (0001ms, 0807ms total)
T1868 001:218 JLINK_IsHalted()  returns FALSE (0001ms, 0807ms total)
T1868 001:220 JLINK_IsHalted()  returns FALSE (0001ms, 0807ms total)
T1868 001:222 JLINK_IsHalted()  returns FALSE (0001ms, 0807ms total)
T1868 001:224 JLINK_IsHalted()  returns FALSE (0000ms, 0806ms total)
T1868 001:225 JLINK_IsHalted()  returns FALSE (0000ms, 0806ms total)
T1868 001:226 JLINK_IsHalted()  returns FALSE (0000ms, 0806ms total)
T1868 001:227 JLINK_IsHalted() -- CPU_ReadMem(2 bytes @ 0x20000000)  returns TRUE (0004ms, 0810ms total)
T1868 001:231 JLINK_ReadReg(R15 (PC))  returns 0x20000000 (0000ms, 0806ms total)
T1868 001:231 JLINK_ClrBPEx(BPHandle = 0x00000007)  returns 0x00 (0000ms, 0806ms total)
T1868 001:231 JLINK_ReadReg(R0)  returns 0x00000000 (0000ms, 0806ms total)
T1868 001:231 JLINK_WriteReg(R0, 0x00000001)  returns 0x00 (0001ms, 0807ms total)
T1868 001:232 JLINK_WriteReg(R1, 0x00008000)  returns 0x00 (0000ms, 0807ms total)
T1868 001:232 JLINK_WriteReg(R2, 0x000000FF)  returns 0x00 (0000ms, 0807ms total)
T1868 001:232 JLINK_WriteReg(R3, 0x00000000)  returns 0x00 (0000ms, 0807ms total)
T1868 001:232 JLINK_WriteReg(R4, 0x00000000)  returns 0x00 (0000ms, 0807ms total)
T1868 001:232 JLINK_WriteReg(R5, 0x00000000)  returns 0x00 (0000ms, 0807ms total)
T1868 001:232 JLINK_WriteReg(R6, 0x00000000)  returns 0x00 (0000ms, 0807ms total)
T1868 001:232 JLINK_WriteReg(R7, 0x00000000)  returns 0x00 (0000ms, 0807ms total)
T1868 001:232 JLINK_WriteReg(R8, 0x00000000)  returns 0x00 (0000ms, 0807ms total)
T1868 001:232 JLINK_WriteReg(R9, 0x20000170)  returns 0x00 (0000ms, 0807ms total)
T1868 001:232 JLINK_WriteReg(R10, 0x00000000)  returns 0x00 (0000ms, 0807ms total)
T1868 001:232 JLINK_WriteReg(R11, 0x00000000)  returns 0x00 (0000ms, 0807ms total)
T1868 001:232 JLINK_WriteReg(R12, 0x00000000)  returns 0x00 (0000ms, 0807ms total)
T1868 001:232 JLINK_WriteReg(R13 (SP), 0x20001000)  returns 0x00 (0000ms, 0807ms total)
T1868 001:232 JLINK_WriteReg(R14, 0x20000001)  returns 0x00 (0000ms, 0807ms total)
T1868 001:232 JLINK_WriteReg(R15 (PC), 0x2000005A)  returns 0x00 (0000ms, 0807ms total)
T1868 001:232 JLINK_WriteReg(XPSR, 0x01000000)  returns 0x00 (0000ms, 0807ms total)
T1868 001:232 JLINK_WriteReg(MSP, 0x20001000)  returns 0x00 (0000ms, 0807ms total)
T1868 001:232 JLINK_WriteReg(PSP, 0x20001000)  returns 0x00 (0000ms, 0807ms total)
T1868 001:232 JLINK_WriteReg(CFBP, 0x00000000)  returns 0x00 (0000ms, 0807ms total)
T1868 001:232 JLINK_SetBPEx(Addr = 0x20000000, Type = 0xFFFFFFF2)  returns 0x00000008 (0000ms, 0807ms total)
T1868 001:232 JLINK_Go() -- CPU_ReadMem(4 bytes @ 0xE0001000) (0003ms, 0810ms total)
T1868 001:235 JLINK_IsHalted() -- CPU_ReadMem(2 bytes @ 0x20000000)  returns TRUE (0004ms, 0814ms total)
T1868 001:239 JLINK_ReadReg(R15 (PC))  returns 0x20000000 (0000ms, 0810ms total)
T1868 001:239 JLINK_ClrBPEx(BPHandle = 0x00000008)  returns 0x00 (0000ms, 0810ms total)
T1868 001:239 JLINK_ReadReg(R0)  returns 0x00000000 (0000ms, 0810ms total)
T1868 001:303 JLINK_WriteMem(0x20000000, 0x0178 Bytes, ...) - Data: 00 BE 0A E0 0D 78 2D 06 68 40 08 24 40 00 00 D3 ... -- CPU_WriteMem(376 bytes @ 0x20000000)  returns 0x178 (0003ms, 0813ms total)
T1868 001:306 JLINK_WriteReg(R0, 0x00000000)  returns 0x00 (0000ms, 0813ms total)
T1868 001:306 JLINK_WriteReg(R1, 0x00B71B00)  returns 0x00 (0000ms, 0813ms total)
T1868 001:306 JLINK_WriteReg(R2, 0x00000002)  returns 0x00 (0000ms, 0813ms total)
T1868 001:306 JLINK_WriteReg(R3, 0x00000000)  returns 0x00 (0000ms, 0813ms total)
T1868 001:306 JLINK_WriteReg(R4, 0x00000000)  returns 0x00 (0000ms, 0813ms total)
T1868 001:306 JLINK_WriteReg(R5, 0x00000000)  returns 0x00 (0000ms, 0813ms total)
T1868 001:307 JLINK_WriteReg(R6, 0x00000000)  returns 0x00 (0000ms, 0814ms total)
T1868 001:307 JLINK_WriteReg(R7, 0x00000000)  returns 0x00 (0000ms, 0814ms total)
T1868 001:307 JLINK_WriteReg(R8, 0x00000000)  returns 0x00 (0000ms, 0814ms total)
T1868 001:307 JLINK_WriteReg(R9, 0x20000170)  returns 0x00 (0000ms, 0814ms total)
T1868 001:307 JLINK_WriteReg(R10, 0x00000000)  returns 0x00 (0000ms, 0814ms total)
T1868 001:307 JLINK_WriteReg(R11, 0x00000000)  returns 0x00 (0000ms, 0814ms total)
T1868 001:307 JLINK_WriteReg(R12, 0x00000000)  returns 0x00 (0000ms, 0814ms total)
T1868 001:307 JLINK_WriteReg(R13 (SP), 0x20001000)  returns 0x00 (0000ms, 0814ms total)
T1868 001:307 JLINK_WriteReg(R14, 0x20000001)  returns 0x00 (0000ms, 0814ms total)
T1868 001:307 JLINK_WriteReg(R15 (PC), 0x2000003C)  returns 0x00 (0000ms, 0814ms total)
T1868 001:307 JLINK_WriteReg(XPSR, 0x01000000)  returns 0x00 (0000ms, 0814ms total)
T1868 001:307 JLINK_WriteReg(MSP, 0x20001000)  returns 0x00 (0000ms, 0814ms total)
T1868 001:307 JLINK_WriteReg(PSP, 0x20001000)  returns 0x00 (0000ms, 0814ms total)
T1868 001:307 JLINK_WriteReg(CFBP, 0x00000000)  returns 0x00 (0000ms, 0814ms total)
T1868 001:307 JLINK_SetBPEx(Addr = 0x20000000, Type = 0xFFFFFFF2) -- CPU_ReadMem(2 bytes @ 0x20000000)  returns 0x00000009 (0001ms, 0815ms total)
T1868 001:308 JLINK_Go() -- CPU_WriteMem(2 bytes @ 0x20000000) -- CPU_ReadMem(4 bytes @ 0xE0001000) (0004ms, 0819ms total)
T1868 001:312 JLINK_IsHalted() -- CPU_ReadMem(2 bytes @ 0x20000000)  returns TRUE (0005ms, 0824ms total)
T1868 001:317 JLINK_ReadReg(R15 (PC))  returns 0x20000000 (0000ms, 0819ms total)
T1868 001:317 JLINK_ClrBPEx(BPHandle = 0x00000009)  returns 0x00 (0000ms, 0819ms total)
T1868 001:317 JLINK_ReadReg(R0)  returns 0x00000000 (0000ms, 0819ms total)
T1868 001:317 JLINK_WriteMem(0x200001A0, 0x0400 Bytes, ...) - Data: 00 80 02 20 C1 05 00 00 C9 05 00 00 CB 05 00 00 ... -- CPU_WriteMem(1024 bytes @ 0x200001A0)  returns 0x400 (0007ms, 0826ms total)
T1868 001:324 JLINK_WriteReg(R0, 0x00000000)  returns 0x00 (0000ms, 0826ms total)
T1868 001:324 JLINK_WriteReg(R1, 0x00000400)  returns 0x00 (0000ms, 0826ms total)
T1868 001:324 JLINK_WriteReg(R2, 0x200001A0)  returns 0x00 (0000ms, 0826ms total)
T1868 001:324 JLINK_WriteReg(R3, 0x00000000)  returns 0x00 (0000ms, 0826ms total)
T1868 001:324 JLINK_WriteReg(R4, 0x00000000)  returns 0x00 (0000ms, 0826ms total)
T1868 001:324 JLINK_WriteReg(R5, 0x00000000)  returns 0x00 (0000ms, 0826ms total)
T1868 001:324 JLINK_WriteReg(R6, 0x00000000)  returns 0x00 (0000ms, 0826ms total)
T1868 001:324 JLINK_WriteReg(R7, 0x00000000)  returns 0x00 (0000ms, 0826ms total)
T1868 001:324 JLINK_WriteReg(R8, 0x00000000)  returns 0x00 (0000ms, 0826ms total)
T1868 001:324 JLINK_WriteReg(R9, 0x20000170)  returns 0x00 (0000ms, 0826ms total)
T1868 001:324 JLINK_WriteReg(R10, 0x00000000)  returns 0x00 (0000ms, 0826ms total)
T1868 001:324 JLINK_WriteReg(R11, 0x00000000)  returns 0x00 (0000ms, 0826ms total)
T1868 001:324 JLINK_WriteReg(R12, 0x00000000)  returns 0x00 (0000ms, 0826ms total)
T1868 001:324 JLINK_WriteReg(R13 (SP), 0x20001000)  returns 0x00 (0000ms, 0826ms total)
T1868 001:324 JLINK_WriteReg(R14, 0x20000001)  returns 0x00 (0000ms, 0826ms total)
T1868 001:324 JLINK_WriteReg(R15 (PC), 0x200000E8)  returns 0x00 (0000ms, 0826ms total)
T1868 001:324 JLINK_WriteReg(XPSR, 0x01000000)  returns 0x00 (0000ms, 0826ms total)
T1868 001:324 JLINK_WriteReg(MSP, 0x20001000)  returns 0x00 (0000ms, 0826ms total)
T1868 001:324 JLINK_WriteReg(PSP, 0x20001000)  returns 0x00 (0000ms, 0826ms total)
T1868 001:324 JLINK_WriteReg(CFBP, 0x00000000)  returns 0x00 (0000ms, 0826ms total)
T1868 001:324 JLINK_SetBPEx(Addr = 0x20000000, Type = 0xFFFFFFF2)  returns 0x0000000A (0000ms, 0826ms total)
T1868 001:325 JLINK_Go() -- CPU_ReadMem(4 bytes @ 0xE0001000) (0006ms, 0832ms total)
T1868 001:331 JLINK_IsHalted()  returns FALSE (0001ms, 0833ms total)
T1868 001:346 JLINK_IsHalted() -- CPU_ReadMem(2 bytes @ 0x20000000)  returns TRUE (0004ms, 0836ms total)
T1868 001:350 JLINK_ReadReg(R15 (PC))  returns 0x20000000 (0000ms, 0832ms total)
T1868 001:350 JLINK_ClrBPEx(BPHandle = 0x0000000A)  returns 0x00 (0000ms, 0832ms total)
T1868 001:350 JLINK_ReadReg(R0)  returns 0x00000000 (0000ms, 0832ms total)
T1868 001:351 JLINK_WriteMem(0x200001A0, 0x0400 Bytes, ...) - Data: DF F8 1C D0 00 F0 5E FA 11 F0 1C FC 00 21 03 48 ... -- CPU_WriteMem(1024 bytes @ 0x200001A0)  returns 0x400 (0007ms, 0839ms total)
T1868 001:358 JLINK_WriteReg(R0, 0x00000400)  returns 0x00 (0000ms, 0839ms total)
T1868 001:358 JLINK_WriteReg(R1, 0x00000400)  returns 0x00 (0000ms, 0839ms total)
T1868 001:358 JLINK_WriteReg(R2, 0x200001A0)  returns 0x00 (0000ms, 0839ms total)
T1868 001:358 JLINK_WriteReg(R3, 0x00000000)  returns 0x00 (0000ms, 0839ms total)
T1868 001:358 JLINK_WriteReg(R4, 0x00000000)  returns 0x00 (0000ms, 0839ms total)
T1868 001:358 JLINK_WriteReg(R5, 0x00000000)  returns 0x00 (0000ms, 0839ms total)
T1868 001:358 JLINK_WriteReg(R6, 0x00000000)  returns 0x00 (0000ms, 0839ms total)
T1868 001:358 JLINK_WriteReg(R7, 0x00000000)  returns 0x00 (0000ms, 0839ms total)
T1868 001:358 JLINK_WriteReg(R8, 0x00000000)  returns 0x00 (0000ms, 0839ms total)
T1868 001:358 JLINK_WriteReg(R9, 0x20000170)  returns 0x00 (0000ms, 0839ms total)
T1868 001:358 JLINK_WriteReg(R10, 0x00000000)  returns 0x00 (0000ms, 0839ms total)
T1868 001:358 JLINK_WriteReg(R11, 0x00000000)  returns 0x00 (0000ms, 0839ms total)
T1868 001:358 JLINK_WriteReg(R12, 0x00000000)  returns 0x00 (0000ms, 0839ms total)
T1868 001:358 JLINK_WriteReg(R13 (SP), 0x20001000)  returns 0x00 (0000ms, 0839ms total)
T1868 001:358 JLINK_WriteReg(R14, 0x20000001)  returns 0x00 (0000ms, 0839ms total)
T1868 001:358 JLINK_WriteReg(R15 (PC), 0x200000E8)  returns 0x00 (0000ms, 0839ms total)
T1868 001:358 JLINK_WriteReg(XPSR, 0x01000000)  returns 0x00 (0000ms, 0839ms total)
T1868 001:358 JLINK_WriteReg(MSP, 0x20001000)  returns 0x00 (0000ms, 0839ms total)
T1868 001:358 JLINK_WriteReg(PSP, 0x20001000)  returns 0x00 (0000ms, 0839ms total)
T1868 001:358 JLINK_WriteReg(CFBP, 0x00000000)  returns 0x00 (0000ms, 0839ms total)
T1868 001:358 JLINK_SetBPEx(Addr = 0x20000000, Type = 0xFFFFFFF2)  returns 0x0000000B (0000ms, 0839ms total)
T1868 001:358 JLINK_Go() -- CPU_ReadMem(4 bytes @ 0xE0001000) (0005ms, 0844ms total)
T1868 001:363 JLINK_IsHalted()  returns FALSE (0001ms, 0845ms total)
T1868 001:371 JLINK_IsHalted() -- CPU_ReadMem(2 bytes @ 0x20000000)  returns TRUE (0004ms, 0848ms total)
T1868 001:375 JLINK_ReadReg(R15 (PC))  returns 0x20000000 (0000ms, 0844ms total)
T1868 001:375 JLINK_ClrBPEx(BPHandle = 0x0000000B)  returns 0x00 (0000ms, 0844ms total)
T1868 001:375 JLINK_ReadReg(R0)  returns 0x00000000 (0000ms, 0844ms total)
T1868 001:376 JLINK_WriteMem(0x200001A0, 0x0400 Bytes, ...) - Data: DF DC 48 46 31 46 2A 46 43 46 BD E8 F0 9F 10 B5 ... -- CPU_WriteMem(1024 bytes @ 0x200001A0)  returns 0x400 (0007ms, 0851ms total)
T1868 001:383 JLINK_WriteReg(R0, 0x00000800)  returns 0x00 (0000ms, 0851ms total)
T1868 001:383 JLINK_WriteReg(R1, 0x00000400)  returns 0x00 (0000ms, 0851ms total)
T1868 001:383 JLINK_WriteReg(R2, 0x200001A0)  returns 0x00 (0000ms, 0851ms total)
T1868 001:383 JLINK_WriteReg(R3, 0x00000000)  returns 0x00 (0000ms, 0851ms total)
T1868 001:383 JLINK_WriteReg(R4, 0x00000000)  returns 0x00 (0000ms, 0851ms total)
T1868 001:383 JLINK_WriteReg(R5, 0x00000000)  returns 0x00 (0000ms, 0851ms total)
T1868 001:383 JLINK_WriteReg(R6, 0x00000000)  returns 0x00 (0000ms, 0851ms total)
T1868 001:383 JLINK_WriteReg(R7, 0x00000000)  returns 0x00 (0000ms, 0851ms total)
T1868 001:383 JLINK_WriteReg(R8, 0x00000000)  returns 0x00 (0000ms, 0851ms total)
T1868 001:383 JLINK_WriteReg(R9, 0x20000170)  returns 0x00 (0000ms, 0851ms total)
T1868 001:383 JLINK_WriteReg(R10, 0x00000000)  returns 0x00 (0000ms, 0851ms total)
T1868 001:383 JLINK_WriteReg(R11, 0x00000000)  returns 0x00 (0000ms, 0851ms total)
T1868 001:383 JLINK_WriteReg(R12, 0x00000000)  returns 0x00 (0000ms, 0851ms total)
T1868 001:383 JLINK_WriteReg(R13 (SP), 0x20001000)  returns 0x00 (0000ms, 0851ms total)
T1868 001:383 JLINK_WriteReg(R14, 0x20000001)  returns 0x00 (0000ms, 0851ms total)
T1868 001:383 JLINK_WriteReg(R15 (PC), 0x200000E8)  returns 0x00 (0000ms, 0851ms total)
T1868 001:383 JLINK_WriteReg(XPSR, 0x01000000)  returns 0x00 (0000ms, 0851ms total)
T1868 001:383 JLINK_WriteReg(MSP, 0x20001000)  returns 0x00 (0000ms, 0851ms total)
T1868 001:383 JLINK_WriteReg(PSP, 0x20001000)  returns 0x00 (0000ms, 0851ms total)
T1868 001:383 JLINK_WriteReg(CFBP, 0x00000000)  returns 0x00 (0000ms, 0851ms total)
T1868 001:383 JLINK_SetBPEx(Addr = 0x20000000, Type = 0xFFFFFFF2)  returns 0x0000000C (0000ms, 0851ms total)
T1868 001:383 JLINK_Go() -- CPU_ReadMem(4 bytes @ 0xE0001000) (0005ms, 0856ms total)
T1868 001:388 JLINK_IsHalted()  returns FALSE (0001ms, 0857ms total)
T1868 001:390 JLINK_IsHalted()  returns FALSE (0001ms, 0857ms total)
T1868 001:394 JLINK_IsHalted() -- CPU_ReadMem(2 bytes @ 0x20000000)  returns TRUE (0005ms, 0861ms total)
T1868 001:399 JLINK_ReadReg(R15 (PC))  returns 0x20000000 (0000ms, 0856ms total)
T1868 001:399 JLINK_ClrBPEx(BPHandle = 0x0000000C)  returns 0x00 (0000ms, 0856ms total)
T1868 001:399 JLINK_ReadReg(R0)  returns 0x00000000 (0000ms, 0856ms total)
T1868 001:399 JLINK_WriteMem(0x200001A0, 0x0400 Bytes, ...) - Data: 09 01 41 F4 83 71 41 65 81 6D 21 F0 09 01 41 F4 ... -- CPU_WriteMem(1024 bytes @ 0x200001A0)  returns 0x400 (0007ms, 0863ms total)
T1868 001:406 JLINK_WriteReg(R0, 0x00000C00)  returns 0x00 (0000ms, 0863ms total)
T1868 001:406 JLINK_WriteReg(R1, 0x00000400)  returns 0x00 (0000ms, 0863ms total)
T1868 001:406 JLINK_WriteReg(R2, 0x200001A0)  returns 0x00 (0000ms, 0863ms total)
T1868 001:406 JLINK_WriteReg(R3, 0x00000000)  returns 0x00 (0000ms, 0863ms total)
T1868 001:406 JLINK_WriteReg(R4, 0x00000000)  returns 0x00 (0000ms, 0863ms total)
T1868 001:406 JLINK_WriteReg(R5, 0x00000000)  returns 0x00 (0000ms, 0863ms total)
T1868 001:406 JLINK_WriteReg(R6, 0x00000000)  returns 0x00 (0000ms, 0863ms total)
T1868 001:406 JLINK_WriteReg(R7, 0x00000000)  returns 0x00 (0000ms, 0863ms total)
T1868 001:406 JLINK_WriteReg(R8, 0x00000000)  returns 0x00 (0000ms, 0863ms total)
T1868 001:406 JLINK_WriteReg(R9, 0x20000170)  returns 0x00 (0000ms, 0863ms total)
T1868 001:406 JLINK_WriteReg(R10, 0x00000000)  returns 0x00 (0000ms, 0863ms total)
T1868 001:406 JLINK_WriteReg(R11, 0x00000000)  returns 0x00 (0000ms, 0863ms total)
T1868 001:406 JLINK_WriteReg(R12, 0x00000000)  returns 0x00 (0000ms, 0863ms total)
T1868 001:406 JLINK_WriteReg(R13 (SP), 0x20001000)  returns 0x00 (0000ms, 0863ms total)
T1868 001:406 JLINK_WriteReg(R14, 0x20000001)  returns 0x00 (0000ms, 0863ms total)
T1868 001:406 JLINK_WriteReg(R15 (PC), 0x200000E8)  returns 0x00 (0000ms, 0863ms total)
T1868 001:406 JLINK_WriteReg(XPSR, 0x01000000)  returns 0x00 (0000ms, 0863ms total)
T1868 001:406 JLINK_WriteReg(MSP, 0x20001000)  returns 0x00 (0000ms, 0863ms total)
T1868 001:406 JLINK_WriteReg(PSP, 0x20001000)  returns 0x00 (0000ms, 0863ms total)
T1868 001:406 JLINK_WriteReg(CFBP, 0x00000000)  returns 0x00 (0000ms, 0863ms total)
T1868 001:406 JLINK_SetBPEx(Addr = 0x20000000, Type = 0xFFFFFFF2)  returns 0x0000000D (0001ms, 0864ms total)
T1868 001:407 JLINK_Go() -- CPU_ReadMem(4 bytes @ 0xE0001000) (0003ms, 0867ms total)
T1868 001:410 JLINK_IsHalted()  returns FALSE (0001ms, 0868ms total)
T1868 001:424 JLINK_IsHalted() -- CPU_ReadMem(2 bytes @ 0x20000000)  returns TRUE (0005ms, 0872ms total)
T1868 001:429 JLINK_ReadReg(R15 (PC))  returns 0x20000000 (0000ms, 0867ms total)
T1868 001:429 JLINK_ClrBPEx(BPHandle = 0x0000000D)  returns 0x00 (0000ms, 0867ms total)
